
T1AA8 000:400 SEGGER J-Link V4.80a Log File (0000ms, 0274ms total)
T1AA8 000:400 DLL Compiled: Jan 10 2014 21:21:47 (0000ms, 0274ms total)
T1AA8 000:400 Logging started @ 2019-11-25 11:32 (0000ms, 0274ms total)
T1AA8 000:400 JLINK_SetWarnOutHandler(...) (0000ms, 0274ms total)
T1AA8 000:400 JLINK_OpenEx(...)
Firmware: J-Link V9 compiled Oct 25 2018 11:46:07
Hardware: V9.70
S/N: 59700618
Feature(s): RDI, FlashBP, FlashDL, JFlash, GDB  returns O.K. (0268ms, 0542ms total)
T1AA8 000:668 JLINK_SetErrorOutHandler(...) (0000ms, 0542ms total)
T1AA8 000:668 JLINK_ExecCommand("ProjectFile = "E:\Work\5.SmartChannel\2.Src\NewSmartChannel_IAP\MDK_PRO\JLinkSettings.ini"", ...)Device "UNSPECIFIED" selected (0 KB flash, 0 KB RAM).  returns 0x00 (0010ms, 0552ms total)
T1AA8 000:679 JLINK_ExecCommand("Device = STM32F407ZGTx", ...)Device "UNSPECIFIED" selected (0 KB flash, 0 KB RAM).  returns 0x00 (0000ms, 0552ms total)
T1AA8 000:679 JLINK_ExecCommand("DisableConnectionTimeout", ...)  returns 0x01 (0000ms, 0552ms total)
T1AA8 000:679 JLINK_GetHardwareVersion()  returns 0x17AE8 (0000ms, 0552ms total)
T1AA8 000:679 JLINK_GetDLLVersion()  returns 48001 (0000ms, 0552ms total)
T1AA8 000:680 JLINK_GetFirmwareString(...) (0000ms, 0552ms total)
T1AA8 000:682 JLINK_GetDLLVersion()  returns 48001 (0000ms, 0552ms total)
T1AA8 000:682 JLINK_GetCompileDateTime() (0000ms, 0552ms total)
T1AA8 000:683 JLINK_GetFirmwareString(...) (0000ms, 0552ms total)
T1AA8 000:684 JLINK_GetHardwareVersion()  returns 0x17AE8 (0000ms, 0552ms total)
T1AA8 000:689 JLINK_TIF_Select(JLINKARM_TIF_SWD)  returns 0x00 (0003ms, 0555ms total)
T1AA8 000:692 JLINK_SetSpeed(500) (0001ms, 0556ms total)
T1AA8 000:693 JLINK_GetId() >0x108 TIF>Found SWD-DP with ID 0x2BA01477 >0x0D TIF> >0x21 TIF> >0x0D TIF> >0x28 TIF> >0x0D TIF> >0x28 TIF> >0x0D TIF> >0x21 TIF> >0x0D TIF> >0x28 TIF> >0x0D TIF> >0x21 TIF> >0x0D TIF> >0x21 TIF> >0x0D TIF> >0x21 TIF> >0x0D TIF> >0x21 TIF> >0x0D TIF> >0x28 TIF> >0x0D TIF> >0x28 TIF> >0x0D TIF> >0x21 TIF> >0x0D TIF> >0x28 TIF> >0x0D TIF> >0x28 TIF> >0x0D TIF> >0x28 TIF> >0x0D TIF> >0x21 TIF> >0x0D TIF> >0x21 TIF> >0x0D TIF> >0x28 TIF> >0x0D TIF> >0x21 TIF> >0x0D TIF>
 >0x21 TIF>Found Cortex-M4 r0p1, Little endian. -- CPU_WriteMem(4 bytes @ 0xE0002000) -- CPU_ReadMem(4 bytes @ 0xE000EDF0) -- CPU_WriteMem(4 bytes @ 0xE000EDF0) -- CPU_ReadMem(4 bytes @ 0xE0002000)FPUnit: 6 code (BP) slots and 2 literal slots -- CPU_ReadMem(4 bytes @ 0xE000EDFC) -- CPU_WriteMem(4 bytes @ 0xE000EDFC) -- CPU_ReadMem(4 bytes @ 0xE0001000) -- CPU_WriteMem(4 bytes @ 0xE0001000) -- CPU_ReadMem(4 bytes @ 0xE00FF010)TPIU fitted. -- CPU_ReadMem(4 bytes @ 0xE00FF014)ETM fitted.
 -- CPU_ReadMem(4 bytes @ 0xE00FF018) >0x0D TIF> >0x21 TIF>  returns 0x2BA01477 (0067ms, 0623ms total)
T1AA8 000:760 JLINK_GetDeviceFamily()  returns 14 (0000ms, 0623ms total)
T1AA8 000:764 JLINK_ReadMem (0xE00FFFF0, 0x0010 Bytes, ...) -- CPU is running -- CPU_ReadMem(16 bytes @ 0xE00FFFF0) -- Data:  0D 00 00 00 10 00 00 00 05 00 00 00 B1 00 00 00  returns 0x00 (0001ms, 0624ms total)
T1AA8 000:765 JLINK_ReadMem (0xE00FFFD0, 0x0020 Bytes, ...) -- CPU is running -- CPU_ReadMem(32 bytes @ 0xE00FFFD0) -- Data:  00 00 00 00 00 00 00 00 00 00 00 00 00 00 00 00 ...  returns 0x00 (0002ms, 0626ms total)
T1AA8 000:767 JLINK_ReadMem (0xE00FF000, 0x0018 Bytes, ...) -- CPU is running -- CPU_ReadMem(24 bytes @ 0xE00FF000) -- Data:  03 F0 F0 FF 03 20 F0 FF 03 30 F0 FF 03 10 F0 FF ...  returns 0x00 (0002ms, 0628ms total)
T1AA8 000:769 JLINK_ReadMemU32(0xE000ED00, 0x0001 Items, ...) -- CPU is running -- CPU_ReadMem(4 bytes @ 0xE000ED00) -- Data:  41 C2 0F 41  returns 0x01 (0001ms, 0629ms total)
T1AA8 000:770 JLINK_ReadMemU32(0xE000EF40, 0x0001 Items, ...) -- CPU is running -- CPU_ReadMem(4 bytes @ 0xE000EF40) -- Data:  21 00 11 10  returns 0x01 (0001ms, 0630ms total)
T1AA8 000:771 JLINK_ReadMemU32(0xE000EF44, 0x0001 Items, ...) -- CPU is running -- CPU_ReadMem(4 bytes @ 0xE000EF44) -- Data:  11 00 00 11  returns 0x01 (0001ms, 0631ms total)
T1AA8 000:772 JLINK_SetResetType(JLINKARM_RESET_TYPE_NORMAL)  returns JLINKARM_RESET_TYPE_NORMAL (0000ms, 0631ms total)
T1AA8 000:772 JLINK_Reset() -- CPU is running -- CPU_WriteMem(4 bytes @ 0xE000EDF0) -- CPU is running -- CPU_WriteMem(4 bytes @ 0xE000EDFC) >0x35 TIF> -- CPU is running -- CPU_WriteMem(4 bytes @ 0xE000ED0C) -- CPU is running -- CPU_ReadMem(4 bytes @ 0xE000EDF0) -- CPU is running -- CPU_ReadMem(4 bytes @ 0xE000EDF0) -- CPU is running -- CPU_WriteMem(4 bytes @ 0xE000EDF0) -- CPU is running -- CPU_WriteMem(4 bytes @ 0xE000EDFC) -- CPU is running -- CPU_ReadMem(4 bytes @ 0xE000EDF0)
 -- CPU_WriteMem(4 bytes @ 0xE0002000) (0032ms, 0663ms total)
T1AA8 000:804 JLINK_Halt()  returns 0x00 (0000ms, 0663ms total)
T1AA8 000:804 JLINK_IsHalted()  returns TRUE (0000ms, 0663ms total)
T1AA8 000:804 JLINK_ReadMemU32(0xE000EDF0, 0x0001 Items, ...) -- CPU_ReadMem(4 bytes @ 0xE000EDF0) -- Data:  03 00 03 00  returns 0x01 (0001ms, 0664ms total)
T1AA8 000:805 JLINK_WriteU32(0xE000EDF0, 0xA05F0003) -- CPU_WriteMem(4 bytes @ 0xE000EDF0)  returns 0x00 (0001ms, 0665ms total)
T1AA8 000:806 JLINK_WriteU32(0xE000EDFC, 0x01000000) -- CPU_WriteMem(4 bytes @ 0xE000EDFC)  returns 0x00 (0003ms, 0668ms total)
T1AA8 000:820 JLINK_GetHWStatus(...)  returns 0x00 (0001ms, 0669ms total)
T1AA8 000:829 JLINK_GetNumBPUnits(Type = 0xFFFFFF00)  returns 0x06 (0000ms, 0669ms total)
T1AA8 000:829 JLINK_GetNumBPUnits(Type = 0xF0)  returns 0x2000 (0000ms, 0669ms total)
T1AA8 000:829 JLINK_GetNumWPUnits()  returns 0x04 (0000ms, 0669ms total)
T1AA8 000:837 JLINK_GetSpeed()  returns 0x1F4 (0000ms, 0669ms total)
T1AA8 000:843 JLINK_ReadMemU32(0xE000E004, 0x0001 Items, ...) -- CPU_ReadMem(4 bytes @ 0xE000E004) -- Data:  02 00 00 00  returns 0x01 (0001ms, 0670ms total)
T1AA8 000:844 JLINK_ReadMemU32(0xE000E004, 0x0001 Items, ...) -- CPU_ReadMem(4 bytes @ 0xE000E004) -- Data:  02 00 00 00  returns 0x01 (0001ms, 0671ms total)
T1AA8 000:845 JLINK_WriteMem(0xE0001000, 0x001C Bytes, ...) -- Data:  01 00 00 00 00 00 00 00 00 00 00 00 00 00 00 00 ... -- CPU_WriteMem(28 bytes @ 0xE0001000)  returns 0x1C (0002ms, 0673ms total)
T1AA8 000:847 JLINK_ReadMem (0xE0001000, 0x001C Bytes, ...) -- CPU_ReadMem(28 bytes @ 0xE0001000) -- Data:  01 00 00 40 00 00 00 00 00 00 00 00 00 00 00 00 ...  returns 0x00 (0002ms, 0675ms total)
T1AA8 000:849 JLINK_Halt()  returns 0x00 (0000ms, 0675ms total)
T1AA8 000:849 JLINK_IsHalted()  returns TRUE (0000ms, 0675ms total)
T1AA8 000:852 JLINK_WriteMem(0x20000000, 0x0180 Bytes, ...) -- Data:  00 BE 0A E0 0D 78 2D 06 68 40 08 24 40 00 00 D3 ... -- CPU_WriteMem(384 bytes @ 0x20000000)  returns 0x180 (0010ms, 0685ms total)
T1AA8 000:862 JLINK_WriteReg(R0, 0x08000000)  returns 0x00 (0000ms, 0685ms total)
T1AA8 000:862 JLINK_WriteReg(R1, 0x007A1200)  returns 0x00 (0000ms, 0685ms total)
T1AA8 000:862 JLINK_WriteReg(R2, 0x00000001)  returns 0x00 (0000ms, 0685ms total)
T1AA8 000:862 JLINK_WriteReg(R3, 0x00000000)  returns 0x00 (0000ms, 0685ms total)
T1AA8 000:862 JLINK_WriteReg(R4, 0x00000000)  returns 0x00 (0000ms, 0685ms total)
T1AA8 000:862 JLINK_WriteReg(R5, 0x00000000)  returns 0x00 (0000ms, 0685ms total)
T1AA8 000:862 JLINK_WriteReg(R6, 0x00000000)  returns 0x00 (0000ms, 0685ms total)
T1AA8 000:862 JLINK_WriteReg(R7, 0x00000000)  returns 0x00 (0000ms, 0685ms total)
T1AA8 000:862 JLINK_WriteReg(R8, 0x00000000)  returns 0x00 (0000ms, 0685ms total)
T1AA8 000:862 JLINK_WriteReg(R9, 0x2000017C)  returns 0x00 (0000ms, 0685ms total)
T1AA8 000:862 JLINK_WriteReg(R10, 0x00000000)  returns 0x00 (0000ms, 0685ms total)
T1AA8 000:862 JLINK_WriteReg(R11, 0x00000000)  returns 0x00 (0000ms, 0685ms total)
T1AA8 000:862 JLINK_WriteReg(R12, 0x00000000)  returns 0x00 (0000ms, 0685ms total)
T1AA8 000:862 JLINK_WriteReg(R13 (SP), 0x20001000)  returns 0x00 (0000ms, 0685ms total)
T1AA8 000:862 JLINK_WriteReg(R14, 0x20000001)  returns 0x00 (0000ms, 0685ms total)
T1AA8 000:862 JLINK_WriteReg(R15 (PC), 0x20000054)  returns 0x00 (0000ms, 0685ms total)
T1AA8 000:862 JLINK_WriteReg(XPSR, 0x01000000)  returns 0x00 (0000ms, 0685ms total)
T1AA8 000:862 JLINK_WriteReg(MSP, 0x20001000)  returns 0x00 (0000ms, 0685ms total)
T1AA8 000:862 JLINK_WriteReg(PSP, 0x20001000)  returns 0x00 (0000ms, 0685ms total)
T1AA8 000:862 JLINK_WriteReg(CFBP, 0x00000000)  returns 0x00 (0000ms, 0685ms total)
T1AA8 000:862 JLINK_SetBPEx(Addr = 0x20000000, Type = 0xFFFFFFF2) -- CPU_ReadMem(4 bytes @ 0x20000000) -- CPU_WriteMem(4 bytes @ 0x20000000) -- CPU_ReadMem(4 bytes @ 0x20000000) -- CPU_WriteMem(4 bytes @ 0x20000000) -- CPU_ReadMem(2 bytes @ 0x20000000)  returns 0x00000001 (0006ms, 0691ms total)
T1AA8 000:868 JLINK_Go() -- CPU_WriteMem(2 bytes @ 0x20000000) -- CPU_WriteMem(4 bytes @ 0xE0002008) -- CPU_WriteMem(4 bytes @ 0xE000200C) -- CPU_WriteMem(4 bytes @ 0xE0002010) -- CPU_WriteMem(4 bytes @ 0xE0002014) -- CPU_WriteMem(4 bytes @ 0xE0002018) -- CPU_WriteMem(4 bytes @ 0xE000201C) (0013ms, 0704ms total)
T1AA8 000:881 JLINK_IsHalted() -- CPU_ReadMem(2 bytes @ 0x20000000)  returns TRUE (0013ms, 0717ms total)
T1AA8 000:894 JLINK_ReadReg(R15 (PC))  returns 0x20000000 (0000ms, 0704ms total)
T1AA8 000:894 JLINK_ClrBPEx(BPHandle = 0x00000001)  returns 0x00 (0000ms, 0704ms total)
T1AA8 000:894 JLINK_ReadReg(R0)  returns 0x00000000 (0000ms, 0704ms total)
T1AA8 000:894 JLINK_WriteReg(R0, 0x08000000)  returns 0x00 (0000ms, 0704ms total)
T1AA8 000:894 JLINK_WriteReg(R1, 0x00004000)  returns 0x00 (0000ms, 0704ms total)
T1AA8 000:894 JLINK_WriteReg(R2, 0x000000FF)  returns 0x00 (0000ms, 0704ms total)
T1AA8 000:894 JLINK_WriteReg(R3, 0x00000000)  returns 0x00 (0000ms, 0704ms total)
T1AA8 000:894 JLINK_WriteReg(R4, 0x00000000)  returns 0x00 (0000ms, 0704ms total)
T1AA8 000:894 JLINK_WriteReg(R5, 0x00000000)  returns 0x00 (0000ms, 0704ms total)
T1AA8 000:894 JLINK_WriteReg(R6, 0x00000000)  returns 0x00 (0000ms, 0704ms total)
T1AA8 000:894 JLINK_WriteReg(R7, 0x00000000)  returns 0x00 (0001ms, 0705ms total)
T1AA8 000:895 JLINK_WriteReg(R8, 0x00000000)  returns 0x00 (0000ms, 0705ms total)
T1AA8 000:895 JLINK_WriteReg(R9, 0x2000017C)  returns 0x00 (0000ms, 0705ms total)
T1AA8 000:895 JLINK_WriteReg(R10, 0x00000000)  returns 0x00 (0000ms, 0705ms total)
T1AA8 000:895 JLINK_WriteReg(R11, 0x00000000)  returns 0x00 (0000ms, 0705ms total)
T1AA8 000:895 JLINK_WriteReg(R12, 0x00000000)  returns 0x00 (0000ms, 0705ms total)
T1AA8 000:895 JLINK_WriteReg(R13 (SP), 0x20001000)  returns 0x00 (0000ms, 0705ms total)
T1AA8 000:895 JLINK_WriteReg(R14, 0x20000001)  returns 0x00 (0000ms, 0705ms total)
T1AA8 000:895 JLINK_WriteReg(R15 (PC), 0x20000020)  returns 0x00 (0000ms, 0705ms total)
T1AA8 000:895 JLINK_WriteReg(XPSR, 0x01000000)  returns 0x00 (0000ms, 0705ms total)
T1AA8 000:895 JLINK_WriteReg(MSP, 0x20001000)  returns 0x00 (0000ms, 0705ms total)
T1AA8 000:895 JLINK_WriteReg(PSP, 0x20001000)  returns 0x00 (0000ms, 0705ms total)
T1AA8 000:895 JLINK_WriteReg(CFBP, 0x00000000)  returns 0x00 (0000ms, 0705ms total)
T1AA8 000:895 JLINK_SetBPEx(Addr = 0x20000000, Type = 0xFFFFFFF2)  returns 0x00000002 (0000ms, 0705ms total)
T1AA8 000:895 JLINK_Go() (0006ms, 0711ms total)
T1AA8 000:901 JLINK_IsHalted()  returns FALSE (0001ms, 0712ms total)
T1AA8 000:924 JLINK_IsHalted() -- CPU_ReadMem(2 bytes @ 0x20000000)  returns TRUE (0013ms, 0724ms total)
T1AA8 000:937 JLINK_ReadReg(R15 (PC))  returns 0x20000000 (0000ms, 0711ms total)
T1AA8 000:937 JLINK_ClrBPEx(BPHandle = 0x00000002)  returns 0x00 (0000ms, 0711ms total)
T1AA8 000:937 JLINK_ReadReg(R0)  returns 0x00000000 (0000ms, 0711ms total)
T1AA8 000:937 JLINK_WriteReg(R0, 0x08004000)  returns 0x00 (0000ms, 0711ms total)
T1AA8 000:937 JLINK_WriteReg(R1, 0x00004000)  returns 0x00 (0000ms, 0711ms total)
T1AA8 000:937 JLINK_WriteReg(R2, 0x000000FF)  returns 0x00 (0000ms, 0711ms total)
T1AA8 000:937 JLINK_WriteReg(R3, 0x00000000)  returns 0x00 (0000ms, 0711ms total)
T1AA8 000:937 JLINK_WriteReg(R4, 0x00000000)  returns 0x00 (0000ms, 0711ms total)
T1AA8 000:937 JLINK_WriteReg(R5, 0x00000000)  returns 0x00 (0000ms, 0711ms total)
T1AA8 000:937 JLINK_WriteReg(R6, 0x00000000)  returns 0x00 (0000ms, 0711ms total)
T1AA8 000:937 JLINK_WriteReg(R7, 0x00000000)  returns 0x00 (0000ms, 0711ms total)
T1AA8 000:937 JLINK_WriteReg(R8, 0x00000000)  returns 0x00 (0000ms, 0711ms total)
T1AA8 000:937 JLINK_WriteReg(R9, 0x2000017C)  returns 0x00 (0000ms, 0711ms total)
T1AA8 000:937 JLINK_WriteReg(R10, 0x00000000)  returns 0x00 (0001ms, 0712ms total)
T1AA8 000:938 JLINK_WriteReg(R11, 0x00000000)  returns 0x00 (0000ms, 0712ms total)
T1AA8 000:938 JLINK_WriteReg(R12, 0x00000000)  returns 0x00 (0000ms, 0712ms total)
T1AA8 000:938 JLINK_WriteReg(R13 (SP), 0x20001000)  returns 0x00 (0000ms, 0712ms total)
T1AA8 000:938 JLINK_WriteReg(R14, 0x20000001)  returns 0x00 (0000ms, 0712ms total)
T1AA8 000:938 JLINK_WriteReg(R15 (PC), 0x20000020)  returns 0x00 (0000ms, 0712ms total)
T1AA8 000:938 JLINK_WriteReg(XPSR, 0x01000000)  returns 0x00 (0000ms, 0712ms total)
T1AA8 000:938 JLINK_WriteReg(MSP, 0x20001000)  returns 0x00 (0000ms, 0712ms total)
T1AA8 000:938 JLINK_WriteReg(PSP, 0x20001000)  returns 0x00 (0000ms, 0712ms total)
T1AA8 000:938 JLINK_WriteReg(CFBP, 0x00000000)  returns 0x00 (0000ms, 0712ms total)
T1AA8 000:938 JLINK_SetBPEx(Addr = 0x20000000, Type = 0xFFFFFFF2)  returns 0x00000003 (0000ms, 0712ms total)
T1AA8 000:938 JLINK_Go() (0005ms, 0717ms total)
T1AA8 000:943 JLINK_IsHalted()  returns FALSE (0002ms, 0719ms total)
T1AA8 000:946 JLINK_IsHalted()  returns FALSE (0001ms, 0718ms total)
T1AA8 000:948 JLINK_IsHalted()  returns FALSE (0001ms, 0718ms total)
T1AA8 000:950 JLINK_IsHalted()  returns FALSE (0001ms, 0718ms total)
T1AA8 000:954 JLINK_IsHalted()  returns FALSE (0001ms, 0718ms total)
T1AA8 000:956 JLINK_IsHalted() -- CPU_ReadMem(2 bytes @ 0x20000000)  returns TRUE (0013ms, 0730ms total)
T1AA8 000:969 JLINK_ReadReg(R15 (PC))  returns 0x20000000 (0000ms, 0717ms total)
T1AA8 000:969 JLINK_ClrBPEx(BPHandle = 0x00000003)  returns 0x00 (0000ms, 0717ms total)
T1AA8 000:969 JLINK_ReadReg(R0)  returns 0x00000000 (0000ms, 0717ms total)
T1AA8 000:969 JLINK_WriteReg(R0, 0x00000001)  returns 0x00 (0000ms, 0717ms total)
T1AA8 000:969 JLINK_WriteReg(R1, 0x00004000)  returns 0x00 (0000ms, 0717ms total)
T1AA8 000:969 JLINK_WriteReg(R2, 0x000000FF)  returns 0x00 (0000ms, 0717ms total)
T1AA8 000:969 JLINK_WriteReg(R3, 0x00000000)  returns 0x00 (0000ms, 0717ms total)
T1AA8 000:969 JLINK_WriteReg(R4, 0x00000000)  returns 0x00 (0000ms, 0717ms total)
T1AA8 000:969 JLINK_WriteReg(R5, 0x00000000)  returns 0x00 (0000ms, 0717ms total)
T1AA8 000:969 JLINK_WriteReg(R6, 0x00000000)  returns 0x00 (0000ms, 0717ms total)
T1AA8 000:969 JLINK_WriteReg(R7, 0x00000000)  returns 0x00 (0000ms, 0717ms total)
T1AA8 000:969 JLINK_WriteReg(R8, 0x00000000)  returns 0x00 (0000ms, 0717ms total)
T1AA8 000:969 JLINK_WriteReg(R9, 0x2000017C)  returns 0x00 (0000ms, 0717ms total)
T1AA8 000:969 JLINK_WriteReg(R10, 0x00000000)  returns 0x00 (0000ms, 0717ms total)
T1AA8 000:969 JLINK_WriteReg(R11, 0x00000000)  returns 0x00 (0000ms, 0717ms total)
T1AA8 000:969 JLINK_WriteReg(R12, 0x00000000)  returns 0x00 (0000ms, 0717ms total)
T1AA8 000:969 JLINK_WriteReg(R13 (SP), 0x20001000)  returns 0x00 (0000ms, 0717ms total)
T1AA8 000:969 JLINK_WriteReg(R14, 0x20000001)  returns 0x00 (0000ms, 0717ms total)
T1AA8 000:969 JLINK_WriteReg(R15 (PC), 0x20000082)  returns 0x00 (0000ms, 0717ms total)
T1AA8 000:969 JLINK_WriteReg(XPSR, 0x01000000)  returns 0x00 (0000ms, 0717ms total)
T1AA8 000:969 JLINK_WriteReg(MSP, 0x20001000)  returns 0x00 (0000ms, 0717ms total)
T1AA8 000:970 JLINK_WriteReg(PSP, 0x20001000)  returns 0x00 (0000ms, 0718ms total)
T1AA8 000:970 JLINK_WriteReg(CFBP, 0x00000000)  returns 0x00 (0000ms, 0718ms total)
T1AA8 000:970 JLINK_SetBPEx(Addr = 0x20000000, Type = 0xFFFFFFF2)  returns 0x00000004 (0000ms, 0718ms total)
T1AA8 000:970 JLINK_Go() (0005ms, 0723ms total)
T1AA8 000:975 JLINK_IsHalted() -- CPU_ReadMem(2 bytes @ 0x20000000)  returns TRUE (0013ms, 0736ms total)
T1AA8 000:988 JLINK_ReadReg(R15 (PC))  returns 0x20000000 (0000ms, 0723ms total)
T1AA8 000:988 JLINK_ClrBPEx(BPHandle = 0x00000004)  returns 0x00 (0000ms, 0723ms total)
T1AA8 000:988 JLINK_ReadReg(R0)  returns 0x00000000 (0000ms, 0723ms total)
T1AA8 001:044 JLINK_WriteMem(0x20000000, 0x0180 Bytes, ...) -- Data:  00 BE 0A E0 0D 78 2D 06 68 40 08 24 40 00 00 D3 ... -- CPU_WriteMem(384 bytes @ 0x20000000)  returns 0x180 (0012ms, 0735ms total)
T1AA8 001:056 JLINK_WriteReg(R0, 0x08000000)  returns 0x00 (0000ms, 0735ms total)
T1AA8 001:056 JLINK_WriteReg(R1, 0x007A1200)  returns 0x00 (0000ms, 0735ms total)
T1AA8 001:056 JLINK_WriteReg(R2, 0x00000002)  returns 0x00 (0000ms, 0735ms total)
T1AA8 001:056 JLINK_WriteReg(R3, 0x00000000)  returns 0x00 (0000ms, 0735ms total)
T1AA8 001:056 JLINK_WriteReg(R4, 0x00000000)  returns 0x00 (0000ms, 0735ms total)
T1AA8 001:056 JLINK_WriteReg(R5, 0x00000000)  returns 0x00 (0000ms, 0735ms total)
T1AA8 001:056 JLINK_WriteReg(R6, 0x00000000)  returns 0x00 (0000ms, 0735ms total)
T1AA8 001:056 JLINK_WriteReg(R7, 0x00000000)  returns 0x00 (0000ms, 0735ms total)
T1AA8 001:056 JLINK_WriteReg(R8, 0x00000000)  returns 0x00 (0000ms, 0735ms total)
T1AA8 001:056 JLINK_WriteReg(R9, 0x2000017C)  returns 0x00 (0000ms, 0735ms total)
T1AA8 001:056 JLINK_WriteReg(R10, 0x00000000)  returns 0x00 (0000ms, 0735ms total)
T1AA8 001:056 JLINK_WriteReg(R11, 0x00000000)  returns 0x00 (0000ms, 0735ms total)
T1AA8 001:056 JLINK_WriteReg(R12, 0x00000000)  returns 0x00 (0000ms, 0735ms total)
T1AA8 001:056 JLINK_WriteReg(R13 (SP), 0x20001000)  returns 0x00 (0000ms, 0735ms total)
T1AA8 001:056 JLINK_WriteReg(R14, 0x20000001)  returns 0x00 (0000ms, 0735ms total)
T1AA8 001:056 JLINK_WriteReg(R15 (PC), 0x20000054)  returns 0x00 (0000ms, 0735ms total)
T1AA8 001:056 JLINK_WriteReg(XPSR, 0x01000000)  returns 0x00 (0000ms, 0735ms total)
T1AA8 001:056 JLINK_WriteReg(MSP, 0x20001000)  returns 0x00 (0000ms, 0735ms total)
T1AA8 001:056 JLINK_WriteReg(PSP, 0x20001000)  returns 0x00 (0000ms, 0735ms total)
T1AA8 001:056 JLINK_WriteReg(CFBP, 0x00000000)  returns 0x00 (0000ms, 0735ms total)
T1AA8 001:056 JLINK_SetBPEx(Addr = 0x20000000, Type = 0xFFFFFFF2) -- CPU_ReadMem(4 bytes @ 0x20000000) -- CPU_WriteMem(4 bytes @ 0x20000000) -- CPU_ReadMem(4 bytes @ 0x20000000) -- CPU_WriteMem(4 bytes @ 0x20000000) -- CPU_ReadMem(2 bytes @ 0x20000000)  returns 0x00000005 (0007ms, 0742ms total)
T1AA8 001:063 JLINK_Go() -- CPU_WriteMem(2 bytes @ 0x20000000) (0006ms, 0748ms total)
T1AA8 001:069 JLINK_IsHalted() -- CPU_ReadMem(2 bytes @ 0x20000000)  returns TRUE (0012ms, 0760ms total)
T1AA8 001:081 JLINK_ReadReg(R15 (PC))  returns 0x20000000 (0000ms, 0748ms total)
T1AA8 001:081 JLINK_ClrBPEx(BPHandle = 0x00000005)  returns 0x00 (0000ms, 0748ms total)
T1AA8 001:081 JLINK_ReadReg(R0)  returns 0x00000000 (0000ms, 0748ms total)
T1AA8 001:082 JLINK_WriteMem(0x20000180, 0x0400 Bytes, ...) -- Data:  80 61 00 20 D5 03 00 08 D3 26 00 08 39 25 00 08 ... -- CPU_WriteMem(1024 bytes @ 0x20000180)  returns 0x400 (0025ms, 0773ms total)
T1AA8 001:108 JLINK_WriteReg(R0, 0x08000000)  returns 0x00 (0000ms, 0773ms total)
T1AA8 001:108 JLINK_WriteReg(R1, 0x00000400)  returns 0x00 (0000ms, 0773ms total)
T1AA8 001:108 JLINK_WriteReg(R2, 0x20000180)  returns 0x00 (0000ms, 0773ms total)
T1AA8 001:108 JLINK_WriteReg(R3, 0x00000000)  returns 0x00 (0000ms, 0773ms total)
T1AA8 001:108 JLINK_WriteReg(R4, 0x00000000)  returns 0x00 (0000ms, 0773ms total)
T1AA8 001:108 JLINK_WriteReg(R5, 0x00000000)  returns 0x00 (0000ms, 0773ms total)
T1AA8 001:108 JLINK_WriteReg(R6, 0x00000000)  returns 0x00 (0000ms, 0773ms total)
T1AA8 001:108 JLINK_WriteReg(R7, 0x00000000)  returns 0x00 (0000ms, 0773ms total)
T1AA8 001:108 JLINK_WriteReg(R8, 0x00000000)  returns 0x00 (0000ms, 0773ms total)
T1AA8 001:108 JLINK_WriteReg(R9, 0x2000017C)  returns 0x00 (0000ms, 0773ms total)
T1AA8 001:108 JLINK_WriteReg(R10, 0x00000000)  returns 0x00 (0000ms, 0773ms total)
T1AA8 001:108 JLINK_WriteReg(R11, 0x00000000)  returns 0x00 (0000ms, 0773ms total)
T1AA8 001:108 JLINK_WriteReg(R12, 0x00000000)  returns 0x00 (0000ms, 0773ms total)
T1AA8 001:108 JLINK_WriteReg(R13 (SP), 0x20001000)  returns 0x00 (0000ms, 0773ms total)
T1AA8 001:108 JLINK_WriteReg(R14, 0x20000001)  returns 0x00 (0000ms, 0773ms total)
T1AA8 001:108 JLINK_WriteReg(R15 (PC), 0x20000108)  returns 0x00 (0000ms, 0773ms total)
T1AA8 001:108 JLINK_WriteReg(XPSR, 0x01000000)  returns 0x00 (0000ms, 0773ms total)
T1AA8 001:108 JLINK_WriteReg(MSP, 0x20001000)  returns 0x00 (0000ms, 0773ms total)
T1AA8 001:108 JLINK_WriteReg(PSP, 0x20001000)  returns 0x00 (0000ms, 0773ms total)
T1AA8 001:108 JLINK_WriteReg(CFBP, 0x00000000)  returns 0x00 (0000ms, 0773ms total)
T1AA8 001:108 JLINK_SetBPEx(Addr = 0x20000000, Type = 0xFFFFFFF2)  returns 0x00000006 (0000ms, 0773ms total)
T1AA8 001:108 JLINK_Go() (0005ms, 0778ms total)
T1AA8 001:113 JLINK_IsHalted()  returns FALSE (0001ms, 0779ms total)
T1AA8 001:118 JLINK_IsHalted() -- CPU_ReadMem(2 bytes @ 0x20000000)  returns TRUE (0013ms, 0791ms total)
T1AA8 001:131 JLINK_ReadReg(R15 (PC))  returns 0x20000000 (0000ms, 0778ms total)
T1AA8 001:131 JLINK_ClrBPEx(BPHandle = 0x00000006)  returns 0x00 (0000ms, 0778ms total)
T1AA8 001:131 JLINK_ReadReg(R0)  returns 0x00000000 (0000ms, 0778ms total)
T1AA8 001:131 JLINK_WriteMem(0x20000180, 0x0400 Bytes, ...) -- Data:  89 01 00 08 80 5B 00 20 80 61 00 20 80 5D 00 20 ... -- CPU_WriteMem(1024 bytes @ 0x20000180)  returns 0x400 (0026ms, 0804ms total)
T1AA8 001:157 JLINK_WriteReg(R0, 0x08000400)  returns 0x00 (0000ms, 0804ms total)
T1AA8 001:157 JLINK_WriteReg(R1, 0x00000400)  returns 0x00 (0000ms, 0804ms total)
T1AA8 001:157 JLINK_WriteReg(R2, 0x20000180)  returns 0x00 (0000ms, 0804ms total)
T1AA8 001:157 JLINK_WriteReg(R3, 0x00000000)  returns 0x00 (0000ms, 0804ms total)
T1AA8 001:157 JLINK_WriteReg(R4, 0x00000000)  returns 0x00 (0000ms, 0804ms total)
T1AA8 001:157 JLINK_WriteReg(R5, 0x00000000)  returns 0x00 (0000ms, 0804ms total)
T1AA8 001:157 JLINK_WriteReg(R6, 0x00000000)  returns 0x00 (0000ms, 0804ms total)
T1AA8 001:157 JLINK_WriteReg(R7, 0x00000000)  returns 0x00 (0000ms, 0804ms total)
T1AA8 001:157 JLINK_WriteReg(R8, 0x00000000)  returns 0x00 (0000ms, 0804ms total)
T1AA8 001:157 JLINK_WriteReg(R9, 0x2000017C)  returns 0x00 (0000ms, 0804ms total)
T1AA8 001:157 JLINK_WriteReg(R10, 0x00000000)  returns 0x00 (0000ms, 0804ms total)
T1AA8 001:157 JLINK_WriteReg(R11, 0x00000000)  returns 0x00 (0000ms, 0804ms total)
T1AA8 001:157 JLINK_WriteReg(R12, 0x00000000)  returns 0x00 (0000ms, 0804ms total)
T1AA8 001:157 JLINK_WriteReg(R13 (SP), 0x20001000)  returns 0x00 (0000ms, 0804ms total)
T1AA8 001:157 JLINK_WriteReg(R14, 0x20000001)  returns 0x00 (0000ms, 0804ms total)
T1AA8 001:157 JLINK_WriteReg(R15 (PC), 0x20000108)  returns 0x00 (0000ms, 0804ms total)
T1AA8 001:157 JLINK_WriteReg(XPSR, 0x01000000)  returns 0x00 (0000ms, 0804ms total)
T1AA8 001:158 JLINK_WriteReg(MSP, 0x20001000)  returns 0x00 (0000ms, 0804ms total)
T1AA8 001:158 JLINK_WriteReg(PSP, 0x20001000)  returns 0x00 (0000ms, 0804ms total)
T1AA8 001:158 JLINK_WriteReg(CFBP, 0x00000000)  returns 0x00 (0000ms, 0804ms total)
T1AA8 001:158 JLINK_SetBPEx(Addr = 0x20000000, Type = 0xFFFFFFF2)  returns 0x00000007 (0000ms, 0804ms total)
T1AA8 001:158 JLINK_Go() (0005ms, 0809ms total)
T1AA8 001:163 JLINK_IsHalted()  returns FALSE (0001ms, 0810ms total)
T1AA8 001:167 JLINK_IsHalted() -- CPU_ReadMem(2 bytes @ 0x20000000)  returns TRUE (0013ms, 0822ms total)
T1AA8 001:180 JLINK_ReadReg(R15 (PC))  returns 0x20000000 (0000ms, 0809ms total)
T1AA8 001:180 JLINK_ClrBPEx(BPHandle = 0x00000007)  returns 0x00 (0000ms, 0809ms total)
T1AA8 001:180 JLINK_ReadReg(R0)  returns 0x00000000 (0000ms, 0809ms total)
T1AA8 001:180 JLINK_WriteMem(0x20000180, 0x0400 Bytes, ...) -- Data:  C0 1A 10 BD 0A 04 01 D0 80 1E 10 BD 09 02 FC D0 ... -- CPU_WriteMem(1024 bytes @ 0x20000180)  returns 0x400 (0026ms, 0835ms total)
T1AA8 001:206 JLINK_WriteReg(R0, 0x08000800)  returns 0x00 (0000ms, 0835ms total)
T1AA8 001:206 JLINK_WriteReg(R1, 0x00000400)  returns 0x00 (0000ms, 0835ms total)
T1AA8 001:206 JLINK_WriteReg(R2, 0x20000180)  returns 0x00 (0000ms, 0835ms total)
T1AA8 001:206 JLINK_WriteReg(R3, 0x00000000)  returns 0x00 (0000ms, 0835ms total)
T1AA8 001:206 JLINK_WriteReg(R4, 0x00000000)  returns 0x00 (0000ms, 0835ms total)
T1AA8 001:206 JLINK_WriteReg(R5, 0x00000000)  returns 0x00 (0000ms, 0835ms total)
T1AA8 001:206 JLINK_WriteReg(R6, 0x00000000)  returns 0x00 (0000ms, 0835ms total)
T1AA8 001:206 JLINK_WriteReg(R7, 0x00000000)  returns 0x00 (0000ms, 0835ms total)
T1AA8 001:206 JLINK_WriteReg(R8, 0x00000000)  returns 0x00 (0000ms, 0835ms total)
T1AA8 001:206 JLINK_WriteReg(R9, 0x2000017C)  returns 0x00 (0000ms, 0835ms total)
T1AA8 001:206 JLINK_WriteReg(R10, 0x00000000)  returns 0x00 (0000ms, 0835ms total)
T1AA8 001:206 JLINK_WriteReg(R11, 0x00000000)  returns 0x00 (0000ms, 0835ms total)
T1AA8 001:206 JLINK_WriteReg(R12, 0x00000000)  returns 0x00 (0000ms, 0835ms total)
T1AA8 001:206 JLINK_WriteReg(R13 (SP), 0x20001000)  returns 0x00 (0000ms, 0835ms total)
T1AA8 001:206 JLINK_WriteReg(R14, 0x20000001)  returns 0x00 (0000ms, 0835ms total)
T1AA8 001:206 JLINK_WriteReg(R15 (PC), 0x20000108)  returns 0x00 (0000ms, 0835ms total)
T1AA8 001:206 JLINK_WriteReg(XPSR, 0x01000000)  returns 0x00 (0000ms, 0835ms total)
T1AA8 001:206 JLINK_WriteReg(MSP, 0x20001000)  returns 0x00 (0000ms, 0835ms total)
T1AA8 001:207 JLINK_WriteReg(PSP, 0x20001000)  returns 0x00 (0000ms, 0835ms total)
T1AA8 001:207 JLINK_WriteReg(CFBP, 0x00000000)  returns 0x00 (0000ms, 0835ms total)
T1AA8 001:207 JLINK_SetBPEx(Addr = 0x20000000, Type = 0xFFFFFFF2)  returns 0x00000008 (0000ms, 0835ms total)
T1AA8 001:207 JLINK_Go() (0005ms, 0840ms total)
T1AA8 001:212 JLINK_IsHalted()  returns FALSE (0001ms, 0841ms total)
T1AA8 001:214 JLINK_IsHalted()  returns FALSE (0001ms, 0841ms total)
T1AA8 001:216 JLINK_IsHalted() -- CPU_ReadMem(2 bytes @ 0x20000000)  returns TRUE (0013ms, 0853ms total)
T1AA8 001:229 JLINK_ReadReg(R15 (PC))  returns 0x20000000 (0000ms, 0840ms total)
T1AA8 001:229 JLINK_ClrBPEx(BPHandle = 0x00000008)  returns 0x00 (0000ms, 0840ms total)
T1AA8 001:229 JLINK_ReadReg(R0)  returns 0x00000000 (0000ms, 0840ms total)
T1AA8 001:229 JLINK_WriteMem(0x20000180, 0x0400 Bytes, ...) -- Data:  0B 60 10 70 70 47 10 B5 43 69 13 B1 AF F3 00 80 ... -- CPU_WriteMem(1024 bytes @ 0x20000180)  returns 0x400 (0026ms, 0866ms total)
T1AA8 001:255 JLINK_WriteReg(R0, 0x08000C00)  returns 0x00 (0000ms, 0866ms total)
T1AA8 001:255 JLINK_WriteReg(R1, 0x00000400)  returns 0x00 (0000ms, 0866ms total)
T1AA8 001:255 JLINK_WriteReg(R2, 0x20000180)  returns 0x00 (0000ms, 0866ms total)
T1AA8 001:255 JLINK_WriteReg(R3, 0x00000000)  returns 0x00 (0000ms, 0866ms total)
T1AA8 001:255 JLINK_WriteReg(R4, 0x00000000)  returns 0x00 (0000ms, 0866ms total)
T1AA8 001:255 JLINK_WriteReg(R5, 0x00000000)  returns 0x00 (0000ms, 0866ms total)
T1AA8 001:255 JLINK_WriteReg(R6, 0x00000000)  returns 0x00 (0000ms, 0866ms total)
T1AA8 001:255 JLINK_WriteReg(R7, 0x00000000)  returns 0x00 (0000ms, 0866ms total)
T1AA8 001:255 JLINK_WriteReg(R8, 0x00000000)  returns 0x00 (0000ms, 0866ms total)
T1AA8 001:255 JLINK_WriteReg(R9, 0x2000017C)  returns 0x00 (0000ms, 0866ms total)
T1AA8 001:255 JLINK_WriteReg(R10, 0x00000000)  returns 0x00 (0000ms, 0866ms total)
T1AA8 001:255 JLINK_WriteReg(R11, 0x00000000)  returns 0x00 (0000ms, 0866ms total)
T1AA8 001:255 JLINK_WriteReg(R12, 0x00000000)  returns 0x00 (0000ms, 0866ms total)
T1AA8 001:255 JLINK_WriteReg(R13 (SP), 0x20001000)  returns 0x00 (0000ms, 0866ms total)
T1AA8 001:255 JLINK_WriteReg(R14, 0x20000001)  returns 0x00 (0000ms, 0866ms total)
T1AA8 001:255 JLINK_WriteReg(R15 (PC), 0x20000108)  returns 0x00 (0000ms, 0866ms total)
T1AA8 001:255 JLINK_WriteReg(XPSR, 0x01000000)  returns 0x00 (0001ms, 0867ms total)
T1AA8 001:256 JLINK_WriteReg(MSP, 0x20001000)  returns 0x00 (0000ms, 0867ms total)
T1AA8 001:256 JLINK_WriteReg(PSP, 0x20001000)  returns 0x00 (0000ms, 0867ms total)
T1AA8 001:256 JLINK_WriteReg(CFBP, 0x00000000)  returns 0x00 (0000ms, 0867ms total)
T1AA8 001:256 JLINK_SetBPEx(Addr = 0x20000000, Type = 0xFFFFFFF2)  returns 0x00000009 (0000ms, 0867ms total)
T1AA8 001:256 JLINK_Go() (0005ms, 0872ms total)
T1AA8 001:261 JLINK_IsHalted()  returns FALSE (0001ms, 0873ms total)
T1AA8 001:264 JLINK_IsHalted()  returns FALSE (0001ms, 0873ms total)
T1AA8 001:266 JLINK_IsHalted() -- CPU_ReadMem(2 bytes @ 0x20000000)  returns TRUE (0013ms, 0885ms total)
T1AA8 001:279 JLINK_ReadReg(R15 (PC))  returns 0x20000000 (0000ms, 0872ms total)
T1AA8 001:279 JLINK_ClrBPEx(BPHandle = 0x00000009)  returns 0x00 (0000ms, 0872ms total)
T1AA8 001:279 JLINK_ReadReg(R0)  returns 0x00000000 (0000ms, 0872ms total)
T1AA8 001:279 JLINK_WriteMem(0x20000180, 0x0400 Bytes, ...) -- Data:  B0 42 FB DB 30 46 00 22 00 21 21 54 0B 99 C1 F8 ... -- CPU_WriteMem(1024 bytes @ 0x20000180)  returns 0x400 (0026ms, 0898ms total)
T1AA8 001:305 JLINK_WriteReg(R0, 0x08001000)  returns 0x00 (0000ms, 0898ms total)
T1AA8 001:305 JLINK_WriteReg(R1, 0x00000400)  returns 0x00 (0000ms, 0898ms total)
T1AA8 001:305 JLINK_WriteReg(R2, 0x20000180)  returns 0x00 (0000ms, 0898ms total)
T1AA8 001:306 JLINK_WriteReg(R3, 0x00000000)  returns 0x00 (0000ms, 0898ms total)
T1AA8 001:306 JLINK_WriteReg(R4, 0x00000000)  returns 0x00 (0000ms, 0898ms total)
T1AA8 001:306 JLINK_WriteReg(R5, 0x00000000)  returns 0x00 (0000ms, 0898ms total)
T1AA8 001:306 JLINK_WriteReg(R6, 0x00000000)  returns 0x00 (0000ms, 0898ms total)
T1AA8 001:306 JLINK_WriteReg(R7, 0x00000000)  returns 0x00 (0000ms, 0898ms total)
T1AA8 001:306 JLINK_WriteReg(R8, 0x00000000)  returns 0x00 (0000ms, 0898ms total)
T1AA8 001:306 JLINK_WriteReg(R9, 0x2000017C)  returns 0x00 (0000ms, 0898ms total)
T1AA8 001:306 JLINK_WriteReg(R10, 0x00000000)  returns 0x00 (0000ms, 0898ms total)
T1AA8 001:306 JLINK_WriteReg(R11, 0x00000000)  returns 0x00 (0000ms, 0898ms total)
T1AA8 001:306 JLINK_WriteReg(R12, 0x00000000)  returns 0x00 (0000ms, 0898ms total)
T1AA8 001:306 JLINK_WriteReg(R13 (SP), 0x20001000)  returns 0x00 (0000ms, 0898ms total)
T1AA8 001:306 JLINK_WriteReg(R14, 0x20000001)  returns 0x00 (0000ms, 0898ms total)
T1AA8 001:306 JLINK_WriteReg(R15 (PC), 0x20000108)  returns 0x00 (0000ms, 0898ms total)
T1AA8 001:306 JLINK_WriteReg(XPSR, 0x01000000)  returns 0x00 (0000ms, 0898ms total)
T1AA8 001:306 JLINK_WriteReg(MSP, 0x20001000)  returns 0x00 (0000ms, 0898ms total)
T1AA8 001:306 JLINK_WriteReg(PSP, 0x20001000)  returns 0x00 (0000ms, 0898ms total)
T1AA8 001:306 JLINK_WriteReg(CFBP, 0x00000000)  returns 0x00 (0000ms, 0898ms total)
T1AA8 001:306 JLINK_SetBPEx(Addr = 0x20000000, Type = 0xFFFFFFF2)  returns 0x0000000A (0000ms, 0898ms total)
T1AA8 001:306 JLINK_Go() (0005ms, 0903ms total)
T1AA8 001:311 JLINK_IsHalted()  returns FALSE (0001ms, 0904ms total)
T1AA8 001:313 JLINK_IsHalted()  returns FALSE (0001ms, 0904ms total)
T1AA8 001:315 JLINK_IsHalted() -- CPU_ReadMem(2 bytes @ 0x20000000)  returns TRUE (0014ms, 0917ms total)
T1AA8 001:329 JLINK_ReadReg(R15 (PC))  returns 0x20000000 (0000ms, 0903ms total)
T1AA8 001:329 JLINK_ClrBPEx(BPHandle = 0x0000000A)  returns 0x00 (0000ms, 0903ms total)
T1AA8 001:329 JLINK_ReadReg(R0)  returns 0x00000000 (0000ms, 0903ms total)
T1AA8 001:329 JLINK_WriteMem(0x20000180, 0x0400 Bytes, ...) -- Data:  4F EA 17 5B 08 46 4F F0 00 00 00 2F 00 F4 40 00 ... -- CPU_WriteMem(1024 bytes @ 0x20000180)  returns 0x400 (0026ms, 0929ms total)
T1AA8 001:355 JLINK_WriteReg(R0, 0x08001400)  returns 0x00 (0000ms, 0929ms total)
T1AA8 001:355 JLINK_WriteReg(R1, 0x00000400)  returns 0x00 (0000ms, 0929ms total)
T1AA8 001:355 JLINK_WriteReg(R2, 0x20000180)  returns 0x00 (0000ms, 0929ms total)
T1AA8 001:356 JLINK_WriteReg(R3, 0x00000000)  returns 0x00 (0000ms, 0930ms total)
T1AA8 001:356 JLINK_WriteReg(R4, 0x00000000)  returns 0x00 (0000ms, 0930ms total)
T1AA8 001:356 JLINK_WriteReg(R5, 0x00000000)  returns 0x00 (0000ms, 0930ms total)
T1AA8 001:356 JLINK_WriteReg(R6, 0x00000000)  returns 0x00 (0000ms, 0930ms total)
T1AA8 001:356 JLINK_WriteReg(R7, 0x00000000)  returns 0x00 (0000ms, 0930ms total)
T1AA8 001:356 JLINK_WriteReg(R8, 0x00000000)  returns 0x00 (0000ms, 0930ms total)
T1AA8 001:356 JLINK_WriteReg(R9, 0x2000017C)  returns 0x00 (0000ms, 0930ms total)
T1AA8 001:356 JLINK_WriteReg(R10, 0x00000000)  returns 0x00 (0000ms, 0930ms total)
T1AA8 001:356 JLINK_WriteReg(R11, 0x00000000)  returns 0x00 (0000ms, 0930ms total)
T1AA8 001:356 JLINK_WriteReg(R12, 0x00000000)  returns 0x00 (0000ms, 0930ms total)
T1AA8 001:356 JLINK_WriteReg(R13 (SP), 0x20001000)  returns 0x00 (0000ms, 0930ms total)
T1AA8 001:356 JLINK_WriteReg(R14, 0x20000001)  returns 0x00 (0000ms, 0930ms total)
T1AA8 001:356 JLINK_WriteReg(R15 (PC), 0x20000108)  returns 0x00 (0000ms, 0930ms total)
T1AA8 001:356 JLINK_WriteReg(XPSR, 0x01000000)  returns 0x00 (0000ms, 0930ms total)
T1AA8 001:356 JLINK_WriteReg(MSP, 0x20001000)  returns 0x00 (0000ms, 0930ms total)
T1AA8 001:356 JLINK_WriteReg(PSP, 0x20001000)  returns 0x00 (0000ms, 0930ms total)
T1AA8 001:356 JLINK_WriteReg(CFBP, 0x00000000)  returns 0x00 (0000ms, 0930ms total)
T1AA8 001:356 JLINK_SetBPEx(Addr = 0x20000000, Type = 0xFFFFFFF2)  returns 0x0000000B (0000ms, 0930ms total)
T1AA8 001:356 JLINK_Go() (0005ms, 0935ms total)
T1AA8 001:361 JLINK_IsHalted()  returns FALSE (0001ms, 0936ms total)
T1AA8 001:364 JLINK_IsHalted()  returns FALSE (0001ms, 0936ms total)
T1AA8 001:366 JLINK_IsHalted() -- CPU_ReadMem(2 bytes @ 0x20000000)  returns TRUE (0013ms, 0948ms total)
T1AA8 001:379 JLINK_ReadReg(R15 (PC))  returns 0x20000000 (0000ms, 0935ms total)
T1AA8 001:379 JLINK_ClrBPEx(BPHandle = 0x0000000B)  returns 0x00 (0000ms, 0935ms total)
T1AA8 001:379 JLINK_ReadReg(R0)  returns 0x00000000 (0000ms, 0935ms total)
T1AA8 001:379 JLINK_WriteMem(0x20000180, 0x0400 Bytes, ...) -- Data:  07 2A 01 F4 00 60 04 DB 08 B1 16 A5 05 E0 16 A5 ... -- CPU_WriteMem(1024 bytes @ 0x20000180)  returns 0x400 (0026ms, 0961ms total)
T1AA8 001:405 JLINK_WriteReg(R0, 0x08001800)  returns 0x00 (0000ms, 0961ms total)
T1AA8 001:405 JLINK_WriteReg(R1, 0x00000400)  returns 0x00 (0000ms, 0961ms total)
T1AA8 001:405 JLINK_WriteReg(R2, 0x20000180)  returns 0x00 (0000ms, 0961ms total)
T1AA8 001:405 JLINK_WriteReg(R3, 0x00000000)  returns 0x00 (0000ms, 0961ms total)
T1AA8 001:405 JLINK_WriteReg(R4, 0x00000000)  returns 0x00 (0000ms, 0961ms total)
T1AA8 001:405 JLINK_WriteReg(R5, 0x00000000)  returns 0x00 (0000ms, 0961ms total)
T1AA8 001:405 JLINK_WriteReg(R6, 0x00000000)  returns 0x00 (0000ms, 0961ms total)
T1AA8 001:405 JLINK_WriteReg(R7, 0x00000000)  returns 0x00 (0000ms, 0961ms total)
T1AA8 001:405 JLINK_WriteReg(R8, 0x00000000)  returns 0x00 (0000ms, 0961ms total)
T1AA8 001:405 JLINK_WriteReg(R9, 0x2000017C)  returns 0x00 (0000ms, 0961ms total)
T1AA8 001:405 JLINK_WriteReg(R10, 0x00000000)  returns 0x00 (0000ms, 0961ms total)
T1AA8 001:405 JLINK_WriteReg(R11, 0x00000000)  returns 0x00 (0000ms, 0961ms total)
T1AA8 001:405 JLINK_WriteReg(R12, 0x00000000)  returns 0x00 (0000ms, 0961ms total)
T1AA8 001:405 JLINK_WriteReg(R13 (SP), 0x20001000)  returns 0x00 (0000ms, 0961ms total)
T1AA8 001:405 JLINK_WriteReg(R14, 0x20000001)  returns 0x00 (0000ms, 0961ms total)
T1AA8 001:405 JLINK_WriteReg(R15 (PC), 0x20000108)  returns 0x00 (0000ms, 0961ms total)
T1AA8 001:405 JLINK_WriteReg(XPSR, 0x01000000)  returns 0x00 (0000ms, 0961ms total)
T1AA8 001:405 JLINK_WriteReg(MSP, 0x20001000)  returns 0x00 (0000ms, 0961ms total)
T1AA8 001:405 JLINK_WriteReg(PSP, 0x20001000)  returns 0x00 (0000ms, 0961ms total)
T1AA8 001:405 JLINK_WriteReg(CFBP, 0x00000000)  returns 0x00 (0000ms, 0961ms total)
T1AA8 001:405 JLINK_SetBPEx(Addr = 0x20000000, Type = 0xFFFFFFF2)  returns 0x0000000C (0000ms, 0961ms total)
T1AA8 001:405 JLINK_Go() (0006ms, 0967ms total)
T1AA8 001:411 JLINK_IsHalted()  returns FALSE (0001ms, 0968ms total)
T1AA8 001:413 JLINK_IsHalted()  returns FALSE (0001ms, 0968ms total)
T1AA8 001:415 JLINK_IsHalted() -- CPU_ReadMem(2 bytes @ 0x20000000)  returns TRUE (0013ms, 0980ms total)
T1AA8 001:428 JLINK_ReadReg(R15 (PC))  returns 0x20000000 (0000ms, 0967ms total)
T1AA8 001:428 JLINK_ClrBPEx(BPHandle = 0x0000000C)  returns 0x00 (0000ms, 0967ms total)
T1AA8 001:428 JLINK_ReadReg(R0)  returns 0x00000000 (0000ms, 0967ms total)
T1AA8 001:428 JLINK_WriteMem(0x20000180, 0x0400 Bytes, ...) -- Data:  0C FB 08 F7 34 BF A2 EB C7 02 B2 EB C7 02 61 EB ... -- CPU_WriteMem(1024 bytes @ 0x20000180)  returns 0x400 (0026ms, 0993ms total)
T1AA8 001:454 JLINK_WriteReg(R0, 0x08001C00)  returns 0x00 (0000ms, 0993ms total)
T1AA8 001:454 JLINK_WriteReg(R1, 0x00000400)  returns 0x00 (0000ms, 0993ms total)
T1AA8 001:454 JLINK_WriteReg(R2, 0x20000180)  returns 0x00 (0000ms, 0993ms total)
T1AA8 001:454 JLINK_WriteReg(R3, 0x00000000)  returns 0x00 (0000ms, 0993ms total)
T1AA8 001:454 JLINK_WriteReg(R4, 0x00000000)  returns 0x00 (0000ms, 0993ms total)
T1AA8 001:454 JLINK_WriteReg(R5, 0x00000000)  returns 0x00 (0000ms, 0993ms total)
T1AA8 001:454 JLINK_WriteReg(R6, 0x00000000)  returns 0x00 (0000ms, 0993ms total)
T1AA8 001:454 JLINK_WriteReg(R7, 0x00000000)  returns 0x00 (0000ms, 0993ms total)
T1AA8 001:454 JLINK_WriteReg(R8, 0x00000000)  returns 0x00 (0000ms, 0993ms total)
T1AA8 001:454 JLINK_WriteReg(R9, 0x2000017C)  returns 0x00 (0000ms, 0993ms total)
T1AA8 001:454 JLINK_WriteReg(R10, 0x00000000)  returns 0x00 (0000ms, 0993ms total)
T1AA8 001:454 JLINK_WriteReg(R11, 0x00000000)  returns 0x00 (0000ms, 0993ms total)
T1AA8 001:454 JLINK_WriteReg(R12, 0x00000000)  returns 0x00 (0000ms, 0993ms total)
T1AA8 001:454 JLINK_WriteReg(R13 (SP), 0x20001000)  returns 0x00 (0001ms, 0994ms total)
T1AA8 001:455 JLINK_WriteReg(R14, 0x20000001)  returns 0x00 (0000ms, 0994ms total)
T1AA8 001:455 JLINK_WriteReg(R15 (PC), 0x20000108)  returns 0x00 (0000ms, 0994ms total)
T1AA8 001:455 JLINK_WriteReg(XPSR, 0x01000000)  returns 0x00 (0000ms, 0994ms total)
T1AA8 001:455 JLINK_WriteReg(MSP, 0x20001000)  returns 0x00 (0000ms, 0994ms total)
T1AA8 001:455 JLINK_WriteReg(PSP, 0x20001000)  returns 0x00 (0000ms, 0994ms total)
T1AA8 001:455 JLINK_WriteReg(CFBP, 0x00000000)  returns 0x00 (0000ms, 0994ms total)
T1AA8 001:455 JLINK_SetBPEx(Addr = 0x20000000, Type = 0xFFFFFFF2)  returns 0x0000000D (0000ms, 0994ms total)
T1AA8 001:455 JLINK_Go() (0005ms, 0999ms total)
T1AA8 001:460 JLINK_IsHalted()  returns FALSE (0002ms, 1001ms total)
T1AA8 001:465 JLINK_IsHalted() -- CPU_ReadMem(2 bytes @ 0x20000000)  returns TRUE (0014ms, 1013ms total)
T1AA8 001:479 JLINK_ReadReg(R15 (PC))  returns 0x20000000 (0000ms, 0999ms total)
T1AA8 001:479 JLINK_ClrBPEx(BPHandle = 0x0000000D)  returns 0x00 (0000ms, 0999ms total)
T1AA8 001:479 JLINK_ReadReg(R0)  returns 0x00000000 (0000ms, 0999ms total)
T1AA8 001:479 JLINK_WriteMem(0x20000180, 0x0400 Bytes, ...) -- Data:  06 FB 07 F7 0C FB 06 F1 05 FB 0C FC 11 EB 07 41 ... -- CPU_WriteMem(1024 bytes @ 0x20000180)  returns 0x400 (0026ms, 1025ms total)
T1AA8 001:505 JLINK_WriteReg(R0, 0x08002000)  returns 0x00 (0000ms, 1025ms total)
T1AA8 001:505 JLINK_WriteReg(R1, 0x00000400)  returns 0x00 (0000ms, 1025ms total)
T1AA8 001:505 JLINK_WriteReg(R2, 0x20000180)  returns 0x00 (0000ms, 1025ms total)
T1AA8 001:505 JLINK_WriteReg(R3, 0x00000000)  returns 0x00 (0000ms, 1025ms total)
T1AA8 001:505 JLINK_WriteReg(R4, 0x00000000)  returns 0x00 (0000ms, 1025ms total)
T1AA8 001:505 JLINK_WriteReg(R5, 0x00000000)  returns 0x00 (0000ms, 1025ms total)
T1AA8 001:505 JLINK_WriteReg(R6, 0x00000000)  returns 0x00 (0000ms, 1025ms total)
T1AA8 001:505 JLINK_WriteReg(R7, 0x00000000)  returns 0x00 (0000ms, 1025ms total)
T1AA8 001:505 JLINK_WriteReg(R8, 0x00000000)  returns 0x00 (0000ms, 1025ms total)
T1AA8 001:505 JLINK_WriteReg(R9, 0x2000017C)  returns 0x00 (0000ms, 1025ms total)
T1AA8 001:505 JLINK_WriteReg(R10, 0x00000000)  returns 0x00 (0000ms, 1025ms total)
T1AA8 001:505 JLINK_WriteReg(R11, 0x00000000)  returns 0x00 (0001ms, 1026ms total)
T1AA8 001:506 JLINK_WriteReg(R12, 0x00000000)  returns 0x00 (0000ms, 1026ms total)
T1AA8 001:506 JLINK_WriteReg(R13 (SP), 0x20001000)  returns 0x00 (0000ms, 1026ms total)
T1AA8 001:506 JLINK_WriteReg(R14, 0x20000001)  returns 0x00 (0000ms, 1026ms total)
T1AA8 001:506 JLINK_WriteReg(R15 (PC), 0x20000108)  returns 0x00 (0000ms, 1026ms total)
T1AA8 001:506 JLINK_WriteReg(XPSR, 0x01000000)  returns 0x00 (0000ms, 1026ms total)
T1AA8 001:506 JLINK_WriteReg(MSP, 0x20001000)  returns 0x00 (0000ms, 1026ms total)
T1AA8 001:506 JLINK_WriteReg(PSP, 0x20001000)  returns 0x00 (0000ms, 1026ms total)
T1AA8 001:506 JLINK_WriteReg(CFBP, 0x00000000)  returns 0x00 (0000ms, 1026ms total)
T1AA8 001:506 JLINK_SetBPEx(Addr = 0x20000000, Type = 0xFFFFFFF2)  returns 0x0000000E (0000ms, 1026ms total)
T1AA8 001:506 JLINK_Go() (0005ms, 1031ms total)
T1AA8 001:511 JLINK_IsHalted()  returns FALSE (0002ms, 1033ms total)
T1AA8 001:514 JLINK_IsHalted()  returns FALSE (0001ms, 1032ms total)
T1AA8 001:516 JLINK_IsHalted() -- CPU_ReadMem(2 bytes @ 0x20000000)  returns TRUE (0013ms, 1044ms total)
T1AA8 001:529 JLINK_ReadReg(R15 (PC))  returns 0x20000000 (0000ms, 1031ms total)
T1AA8 001:529 JLINK_ClrBPEx(BPHandle = 0x0000000E)  returns 0x00 (0000ms, 1031ms total)
T1AA8 001:529 JLINK_ReadReg(R0)  returns 0x00000000 (0000ms, 1031ms total)
T1AA8 001:529 JLINK_WriteMem(0x20000180, 0x0400 Bytes, ...) -- Data:  00 E0 9E 40 46 EA 0E 06 06 60 0E 79 01 2E 01 D0 ... -- CPU_WriteMem(1024 bytes @ 0x20000180)  returns 0x400 (0026ms, 1057ms total)
T1AA8 001:555 JLINK_WriteReg(R0, 0x08002400)  returns 0x00 (0000ms, 1057ms total)
T1AA8 001:555 JLINK_WriteReg(R1, 0x00000400)  returns 0x00 (0000ms, 1057ms total)
T1AA8 001:555 JLINK_WriteReg(R2, 0x20000180)  returns 0x00 (0000ms, 1057ms total)
T1AA8 001:555 JLINK_WriteReg(R3, 0x00000000)  returns 0x00 (0000ms, 1057ms total)
T1AA8 001:555 JLINK_WriteReg(R4, 0x00000000)  returns 0x00 (0000ms, 1057ms total)
T1AA8 001:555 JLINK_WriteReg(R5, 0x00000000)  returns 0x00 (0000ms, 1057ms total)
T1AA8 001:555 JLINK_WriteReg(R6, 0x00000000)  returns 0x00 (0000ms, 1057ms total)
T1AA8 001:555 JLINK_WriteReg(R7, 0x00000000)  returns 0x00 (0000ms, 1057ms total)
T1AA8 001:555 JLINK_WriteReg(R8, 0x00000000)  returns 0x00 (0000ms, 1057ms total)
T1AA8 001:555 JLINK_WriteReg(R9, 0x2000017C)  returns 0x00 (0000ms, 1057ms total)
T1AA8 001:555 JLINK_WriteReg(R10, 0x00000000)  returns 0x00 (0000ms, 1057ms total)
T1AA8 001:555 JLINK_WriteReg(R11, 0x00000000)  returns 0x00 (0000ms, 1057ms total)
T1AA8 001:555 JLINK_WriteReg(R12, 0x00000000)  returns 0x00 (0000ms, 1057ms total)
T1AA8 001:555 JLINK_WriteReg(R13 (SP), 0x20001000)  returns 0x00 (0000ms, 1057ms total)
T1AA8 001:555 JLINK_WriteReg(R14, 0x20000001)  returns 0x00 (0000ms, 1057ms total)
T1AA8 001:556 JLINK_WriteReg(R15 (PC), 0x20000108)  returns 0x00 (0000ms, 1057ms total)
T1AA8 001:556 JLINK_WriteReg(XPSR, 0x01000000)  returns 0x00 (0000ms, 1057ms total)
T1AA8 001:556 JLINK_WriteReg(MSP, 0x20001000)  returns 0x00 (0000ms, 1057ms total)
T1AA8 001:556 JLINK_WriteReg(PSP, 0x20001000)  returns 0x00 (0000ms, 1057ms total)
T1AA8 001:556 JLINK_WriteReg(CFBP, 0x00000000)  returns 0x00 (0000ms, 1057ms total)
T1AA8 001:556 JLINK_SetBPEx(Addr = 0x20000000, Type = 0xFFFFFFF2)  returns 0x0000000F (0000ms, 1057ms total)
T1AA8 001:556 JLINK_Go() (0005ms, 1062ms total)
T1AA8 001:561 JLINK_IsHalted()  returns FALSE (0001ms, 1063ms total)
T1AA8 001:564 JLINK_IsHalted()  returns FALSE (0001ms, 1063ms total)
T1AA8 001:566 JLINK_IsHalted() -- CPU_ReadMem(2 bytes @ 0x20000000)  returns TRUE (0013ms, 1075ms total)
T1AA8 001:579 JLINK_ReadReg(R15 (PC))  returns 0x20000000 (0000ms, 1062ms total)
T1AA8 001:579 JLINK_ClrBPEx(BPHandle = 0x0000000F)  returns 0x00 (0000ms, 1062ms total)
T1AA8 001:579 JLINK_ReadReg(R0)  returns 0x00000000 (0000ms, 1062ms total)
T1AA8 001:579 JLINK_WriteMem(0x20000180, 0x0400 Bytes, ...) -- Data:  06 60 19 E0 18 4A 12 1F 11 68 C1 F3 80 55 11 68 ... -- CPU_WriteMem(1024 bytes @ 0x20000180)  returns 0x400 (0026ms, 1088ms total)
T1AA8 001:605 JLINK_WriteReg(R0, 0x08002800)  returns 0x00 (0000ms, 1088ms total)
T1AA8 001:605 JLINK_WriteReg(R1, 0x00000400)  returns 0x00 (0000ms, 1088ms total)
T1AA8 001:605 JLINK_WriteReg(R2, 0x20000180)  returns 0x00 (0000ms, 1088ms total)
T1AA8 001:605 JLINK_WriteReg(R3, 0x00000000)  returns 0x00 (0000ms, 1088ms total)
T1AA8 001:605 JLINK_WriteReg(R4, 0x00000000)  returns 0x00 (0000ms, 1088ms total)
T1AA8 001:605 JLINK_WriteReg(R5, 0x00000000)  returns 0x00 (0000ms, 1088ms total)
T1AA8 001:605 JLINK_WriteReg(R6, 0x00000000)  returns 0x00 (0000ms, 1088ms total)
T1AA8 001:605 JLINK_WriteReg(R7, 0x00000000)  returns 0x00 (0000ms, 1088ms total)
T1AA8 001:605 JLINK_WriteReg(R8, 0x00000000)  returns 0x00 (0000ms, 1088ms total)
T1AA8 001:606 JLINK_WriteReg(R9, 0x2000017C)  returns 0x00 (0000ms, 1088ms total)
T1AA8 001:606 JLINK_WriteReg(R10, 0x00000000)  returns 0x00 (0000ms, 1088ms total)
T1AA8 001:606 JLINK_WriteReg(R11, 0x00000000)  returns 0x00 (0000ms, 1088ms total)
T1AA8 001:606 JLINK_WriteReg(R12, 0x00000000)  returns 0x00 (0000ms, 1088ms total)
T1AA8 001:606 JLINK_WriteReg(R13 (SP), 0x20001000)  returns 0x00 (0000ms, 1088ms total)
T1AA8 001:606 JLINK_WriteReg(R14, 0x20000001)  returns 0x00 (0000ms, 1088ms total)
T1AA8 001:606 JLINK_WriteReg(R15 (PC), 0x20000108)  returns 0x00 (0000ms, 1088ms total)
T1AA8 001:606 JLINK_WriteReg(XPSR, 0x01000000)  returns 0x00 (0000ms, 1088ms total)
T1AA8 001:606 JLINK_WriteReg(MSP, 0x20001000)  returns 0x00 (0000ms, 1088ms total)
T1AA8 001:606 JLINK_WriteReg(PSP, 0x20001000)  returns 0x00 (0000ms, 1088ms total)
T1AA8 001:606 JLINK_WriteReg(CFBP, 0x00000000)  returns 0x00 (0000ms, 1088ms total)
T1AA8 001:606 JLINK_SetBPEx(Addr = 0x20000000, Type = 0xFFFFFFF2)  returns 0x00000010 (0000ms, 1088ms total)
T1AA8 001:606 JLINK_Go() (0005ms, 1093ms total)
T1AA8 001:611 JLINK_IsHalted()  returns FALSE (0001ms, 1094ms total)
T1AA8 001:614 JLINK_IsHalted()  returns FALSE (0001ms, 1094ms total)
T1AA8 001:616 JLINK_IsHalted() -- CPU_ReadMem(2 bytes @ 0x20000000)  returns TRUE (0013ms, 1106ms total)
T1AA8 001:629 JLINK_ReadReg(R15 (PC))  returns 0x20000000 (0000ms, 1093ms total)
T1AA8 001:629 JLINK_ClrBPEx(BPHandle = 0x00000010)  returns 0x00 (0000ms, 1093ms total)
T1AA8 001:629 JLINK_ReadReg(R0)  returns 0x00000000 (0000ms, 1093ms total)
T1AA8 001:629 JLINK_WriteMem(0x20000180, 0x0400 Bytes, ...) -- Data:  FF FF F6 FE 10 30 00 24 10 B5 0A 4C 01 21 20 46 ... -- CPU_WriteMem(1024 bytes @ 0x20000180)  returns 0x400 (0026ms, 1119ms total)
T1AA8 001:655 JLINK_WriteReg(R0, 0x08002C00)  returns 0x00 (0000ms, 1119ms total)
T1AA8 001:655 JLINK_WriteReg(R1, 0x00000400)  returns 0x00 (0000ms, 1119ms total)
T1AA8 001:655 JLINK_WriteReg(R2, 0x20000180)  returns 0x00 (0000ms, 1119ms total)
T1AA8 001:655 JLINK_WriteReg(R3, 0x00000000)  returns 0x00 (0000ms, 1119ms total)
T1AA8 001:655 JLINK_WriteReg(R4, 0x00000000)  returns 0x00 (0000ms, 1119ms total)
T1AA8 001:655 JLINK_WriteReg(R5, 0x00000000)  returns 0x00 (0000ms, 1119ms total)
T1AA8 001:655 JLINK_WriteReg(R6, 0x00000000)  returns 0x00 (0000ms, 1119ms total)
T1AA8 001:655 JLINK_WriteReg(R7, 0x00000000)  returns 0x00 (0000ms, 1119ms total)
T1AA8 001:655 JLINK_WriteReg(R8, 0x00000000)  returns 0x00 (0000ms, 1119ms total)
T1AA8 001:655 JLINK_WriteReg(R9, 0x2000017C)  returns 0x00 (0000ms, 1119ms total)
T1AA8 001:655 JLINK_WriteReg(R10, 0x00000000)  returns 0x00 (0001ms, 1120ms total)
T1AA8 001:656 JLINK_WriteReg(R11, 0x00000000)  returns 0x00 (0000ms, 1120ms total)
T1AA8 001:656 JLINK_WriteReg(R12, 0x00000000)  returns 0x00 (0000ms, 1120ms total)
T1AA8 001:656 JLINK_WriteReg(R13 (SP), 0x20001000)  returns 0x00 (0000ms, 1120ms total)
T1AA8 001:656 JLINK_WriteReg(R14, 0x20000001)  returns 0x00 (0000ms, 1120ms total)
T1AA8 001:656 JLINK_WriteReg(R15 (PC), 0x20000108)  returns 0x00 (0000ms, 1120ms total)
T1AA8 001:656 JLINK_WriteReg(XPSR, 0x01000000)  returns 0x00 (0000ms, 1120ms total)
T1AA8 001:656 JLINK_WriteReg(MSP, 0x20001000)  returns 0x00 (0000ms, 1120ms total)
T1AA8 001:656 JLINK_WriteReg(PSP, 0x20001000)  returns 0x00 (0000ms, 1120ms total)
T1AA8 001:656 JLINK_WriteReg(CFBP, 0x00000000)  returns 0x00 (0000ms, 1120ms total)
T1AA8 001:656 JLINK_SetBPEx(Addr = 0x20000000, Type = 0xFFFFFFF2)  returns 0x00000011 (0000ms, 1120ms total)
T1AA8 001:656 JLINK_Go() (0005ms, 1125ms total)
T1AA8 001:661 JLINK_IsHalted()  returns FALSE (0001ms, 1126ms total)
T1AA8 001:664 JLINK_IsHalted()  returns FALSE (0001ms, 1126ms total)
T1AA8 001:666 JLINK_IsHalted() -- CPU_ReadMem(2 bytes @ 0x20000000)  returns TRUE (0013ms, 1138ms total)
T1AA8 001:680 JLINK_ReadReg(R15 (PC))  returns 0x20000000 (0000ms, 1125ms total)
T1AA8 001:680 JLINK_ClrBPEx(BPHandle = 0x00000011)  returns 0x00 (0000ms, 1125ms total)
T1AA8 001:680 JLINK_ReadReg(R0)  returns 0x00000000 (0000ms, 1125ms total)
T1AA8 001:680 JLINK_WriteMem(0x20000180, 0x0400 Bytes, ...) -- Data:  E1 B2 88 42 19 D0 15 20 88 E0 06 20 FF F7 4E FD ... -- CPU_WriteMem(1024 bytes @ 0x20000180)  returns 0x400 (0026ms, 1151ms total)
T1AA8 001:706 JLINK_WriteReg(R0, 0x08003000)  returns 0x00 (0000ms, 1151ms total)
T1AA8 001:706 JLINK_WriteReg(R1, 0x00000400)  returns 0x00 (0000ms, 1151ms total)
T1AA8 001:706 JLINK_WriteReg(R2, 0x20000180)  returns 0x00 (0000ms, 1151ms total)
T1AA8 001:706 JLINK_WriteReg(R3, 0x00000000)  returns 0x00 (0000ms, 1151ms total)
T1AA8 001:706 JLINK_WriteReg(R4, 0x00000000)  returns 0x00 (0000ms, 1151ms total)
T1AA8 001:706 JLINK_WriteReg(R5, 0x00000000)  returns 0x00 (0000ms, 1151ms total)
T1AA8 001:706 JLINK_WriteReg(R6, 0x00000000)  returns 0x00 (0000ms, 1151ms total)
T1AA8 001:706 JLINK_WriteReg(R7, 0x00000000)  returns 0x00 (0000ms, 1151ms total)
T1AA8 001:706 JLINK_WriteReg(R8, 0x00000000)  returns 0x00 (0001ms, 1152ms total)
T1AA8 001:707 JLINK_WriteReg(R9, 0x2000017C)  returns 0x00 (0000ms, 1152ms total)
T1AA8 001:707 JLINK_WriteReg(R10, 0x00000000)  returns 0x00 (0000ms, 1152ms total)
T1AA8 001:707 JLINK_WriteReg(R11, 0x00000000)  returns 0x00 (0000ms, 1152ms total)
T1AA8 001:707 JLINK_WriteReg(R12, 0x00000000)  returns 0x00 (0000ms, 1152ms total)
